
**** 03/05/19 16:02:20 *********** Evaluation PSpice (Nov 1999) **************

 * C:\Users\Petter\Documents\prog\github\INF5960-petteakr\pspice\Schematics\inverting_opamp.sch


 ****     CIRCUIT DESCRIPTION


******************************************************************************




* Schematics Version 9.1 - Web Update 1
* Tue Mar 05 16:02:20 2019



** Analysis setup **
.OP 


* From [PSPICE NETLIST] section of pspiceev.ini:
.lib "nom.lib"

.INC "inverting_opamp.net"

**** INCLUDING inverting_opamp.net ****
* Schematics Netlist *



C_C1         $N_0001 V_out  47p  
E_U1         V_out 0 VALUE {LIMIT(V(GND,$N_0001)*1,-15V,+15V)}
R_R_feedback         $N_0001 V_out  10k  
R_R5         0 $N_0002  1k  
R_R_flexiforce         $N_0001 $N_0002  600k  
R_R4         $N_0002 $N_0003  4k  
V_V3         $N_0003 GND -5V

**** RESUMING inverting_opamp.cir ****
.INC "inverting_opamp.als"



**** INCLUDING inverting_opamp.als ****
* Schematics Aliases *

.ALIASES
C_C1            C1(1=$N_0001 2=V_out )
E_U1            U1(OUT=V_out +=GND -=$N_0001 )
R_R_feedback          R_feedback(1=$N_0001 2=V_out )
R_R5            R5(1=0 2=$N_0002 )
R_R_flexiforce          R_flexiforce(1=$N_0001 2=$N_0002 )
R_R4            R4(1=$N_0002 2=$N_0003 )
V_V3            V3(+=$N_0003 -=GND )
_    _(V_out=V_out)
_    _(GND=GND)
.ENDALIASES


**** RESUMING inverting_opamp.cir ****
.probe


.END

**** 03/05/19 16:02:20 *********** Evaluation PSpice (Nov 1999) **************

 * C:\Users\Petter\Documents\prog\github\INF5960-petteakr\pspice\Schematics\inverting_opamp.sch


 ****     SMALL SIGNAL BIAS SOLUTION       TEMPERATURE =   27.000 DEG C


******************************************************************************



 NODE   VOLTAGE     NODE   VOLTAGE     NODE   VOLTAGE     NODE   VOLTAGE


(  GND)    5.0041  (V_out)    2.5227  ($N_0001)    2.4814                       

($N_0002)     .0041                   ($N_0003)     .0041                   




    VOLTAGE SOURCE CURRENTS
    NAME         CURRENT

    V_V3         0.000E+00

    TOTAL POWER DISSIPATION   0.00E+00  WATTS


**** 03/05/19 16:02:20 *********** Evaluation PSpice (Nov 1999) **************

 * C:\Users\Petter\Documents\prog\github\INF5960-petteakr\pspice\Schematics\inverting_opamp.sch


 ****     OPERATING POINT INFORMATION      TEMPERATURE =   27.000 DEG C


******************************************************************************






**** VOLTAGE-CONTROLLED VOLTAGE SOURCES


NAME         E_U1      
V-SOURCE     2.523E+00
I-SOURCE    -4.129E-06

          JOB CONCLUDED

          TOTAL JOB TIME            0.00
