
**** 09/21/18 16:20:25 *********** Evaluation PSpice (Nov 1999) **************

 * C:\Users\Petter\Documents\noninvertin_opamp.sch


 ****     CIRCUIT DESCRIPTION


******************************************************************************




* Schematics Version 9.1 - Web Update 1
* Fri Sep 21 16:20:25 2018



** Analysis setup **
.OP 


* From [PSPICE NETLIST] section of pspiceev.ini:
.lib "nom.lib"

.INC "noninvertin_opamp.net"

**** INCLUDING noninvertin_opamp.net ****
* Schematics Netlist *



R_R2         0 $N_0001  1k  
R_R1         $N_0001 $N_0002  1k  
R_Rf         $N_0003 Vout  100k  
C_C1         $N_0003 Vout  47p  
E_U1         Vout 0 VALUE {LIMIT(V($N_0001,$N_0003)*1E6,-3.3V,+3.3V)}
R_R4         0 $N_0003  0.5M  
V_V1         $N_0002 0 5V

**** RESUMING noninvertin_opamp.cir ****
.INC "noninvertin_opamp.als"



**** INCLUDING noninvertin_opamp.als ****
* Schematics Aliases *

.ALIASES
R_R2            R2(1=0 2=$N_0001 )
R_R1            R1(1=$N_0001 2=$N_0002 )
R_Rf            Rf(1=$N_0003 2=Vout )
C_C1            C1(1=$N_0003 2=Vout )
E_U1            U1(OUT=Vout +=$N_0001 -=$N_0003 )
R_R4            R4(1=0 2=$N_0003 )
V_V1            V1(+=$N_0002 -=0 )
_    _(Vout=Vout)
.ENDALIASES


**** RESUMING noninvertin_opamp.cir ****
.probe


.END

**** 09/21/18 16:20:25 *********** Evaluation PSpice (Nov 1999) **************

 * C:\Users\Petter\Documents\noninvertin_opamp.sch


 ****     SMALL SIGNAL BIAS SOLUTION       TEMPERATURE =   27.000 DEG C


******************************************************************************



 NODE   VOLTAGE     NODE   VOLTAGE     NODE   VOLTAGE     NODE   VOLTAGE


( Vout)    3.3000  ($N_0001)    2.5000                   ($N_0002)    5.0000    

($N_0003) 16.50E-09                   




    VOLTAGE SOURCE CURRENTS
    NAME         CURRENT

    V_V1        -2.500E-03

    TOTAL POWER DISSIPATION   1.25E-02  WATTS


**** 09/21/18 16:20:25 *********** Evaluation PSpice (Nov 1999) **************

 * C:\Users\Petter\Documents\noninvertin_opamp.sch


 ****     OPERATING POINT INFORMATION      TEMPERATURE =   27.000 DEG C


******************************************************************************






**** VOLTAGE-CONTROLLED VOLTAGE SOURCES


NAME         E_U1      
V-SOURCE     3.300E+00
I-SOURCE    -3.300E-05

          JOB CONCLUDED

          TOTAL JOB TIME             .02
