
**** 10/12/18 15:06:52 *********** Evaluation PSpice (Nov 1999) **************

 * C:\Users\Petter\Documents\prog\github\INF5960-petteakr\pspice\Schematics\noninvertin_opamp.sch


 ****     CIRCUIT DESCRIPTION


******************************************************************************




* Schematics Version 9.1 - Web Update 1
* Fri Oct 12 15:06:51 2018



** Analysis setup **
.OP 


* From [PSPICE NETLIST] section of pspiceev.ini:
.lib "nom.lib"

.INC "noninvertin_opamp.net"

**** INCLUDING noninvertin_opamp.net ****
* Schematics Netlist *



V_V1         $N_0001 0 5V
R_R2         0 $N_0002  0.5M  
R_R1         $N_0002 $N_0001  4.5M  
R_Rfeedback         $N_0003 Vout  1M  
E_MCP6004         Vout 0 VALUE {LIMIT(V($N_0002,$N_0003)*1E6,-3.3V,+3.3V)}
R_Rflexiforce         0 $N_0003  0.15M  

**** RESUMING noninvertin_opamp.cir ****
.INC "noninvertin_opamp.als"



**** INCLUDING noninvertin_opamp.als ****
* Schematics Aliases *

.ALIASES
V_V1            V1(+=$N_0001 -=0 )
R_R2            R2(1=0 2=$N_0002 )
R_R1            R1(1=$N_0002 2=$N_0001 )
R_Rfeedback          Rfeedback(1=$N_0003 2=Vout )
E_MCP6004          MCP6004(OUT=Vout +=$N_0002 -=$N_0003 )
R_Rflexiforce          Rflexiforce(1=0 2=$N_0003 )
_    _(Vout=Vout)
.ENDALIASES


**** RESUMING noninvertin_opamp.cir ****
.probe


.END

**** 10/12/18 15:06:52 *********** Evaluation PSpice (Nov 1999) **************

 * C:\Users\Petter\Documents\prog\github\INF5960-petteakr\pspice\Schematics\noninvertin_opamp.sch


 ****     SMALL SIGNAL BIAS SOLUTION       TEMPERATURE =   27.000 DEG C


******************************************************************************



 NODE   VOLTAGE     NODE   VOLTAGE     NODE   VOLTAGE     NODE   VOLTAGE


( Vout)    3.3000  ($N_0001)    5.0000                   ($N_0002)     .5000    

($N_0003)     .4304                   




    VOLTAGE SOURCE CURRENTS
    NAME         CURRENT

    V_V1        -1.000E+03

    TOTAL POWER DISSIPATION   5.00E+03  WATTS


**** 10/12/18 15:06:52 *********** Evaluation PSpice (Nov 1999) **************

 * C:\Users\Petter\Documents\prog\github\INF5960-petteakr\pspice\Schematics\noninvertin_opamp.sch


 ****     OPERATING POINT INFORMATION      TEMPERATURE =   27.000 DEG C


******************************************************************************






**** VOLTAGE-CONTROLLED VOLTAGE SOURCES


NAME         E_MCP6004 
V-SOURCE     3.300E+00
I-SOURCE    -2.870E+03

          JOB CONCLUDED

          TOTAL JOB TIME            0.00
