
**** 09/21/18 15:14:15 *********** Evaluation PSpice (Nov 1999) **************

 * C:\Users\Petter\Documents\voltagedivider_flexiforce.sch


 ****     CIRCUIT DESCRIPTION


******************************************************************************




* Schematics Version 9.1 - Web Update 1
* Fri Sep 21 15:14:12 2018



** Analysis setup **
.tran 1us 100ms
.OP 


* From [PSPICE NETLIST] section of pspiceev.ini:
.lib "nom.lib"

.INC "voltagedivider_flexiforce.net"

**** INCLUDING voltagedivider_flexiforce.net ****
* Schematics Netlist *



V_V1         $N_0001 0 5V
R_R2         0 Vout  1k  
RT_R5         Vout $N_0001 {(1K*(1-0.5))+.001}
RB_R5        $N_0001 $N_0001 {(1K*0.5)+.001}

**** RESUMING voltagedivider_flexiforce.cir ****
.INC "voltagedivider_flexiforce.als"



**** INCLUDING voltagedivider_flexiforce.als ****
* Schematics Aliases *

.ALIASES
V_V1            V1(+=$N_0001 -=0 )
R_R2            R2(1=0 2=Vout )
RT_R5            R5(1=Vout t=$N_0001 )
RB_R5           R5(t=$N_0001 2=$N_0001 )
_    _(Vout=Vout)
.ENDALIASES


**** RESUMING voltagedivider_flexiforce.cir ****
.probe


.END

**** 09/21/18 15:14:15 *********** Evaluation PSpice (Nov 1999) **************

 * C:\Users\Petter\Documents\voltagedivider_flexiforce.sch


 ****     SMALL SIGNAL BIAS SOLUTION       TEMPERATURE =   27.000 DEG C


******************************************************************************



 NODE   VOLTAGE     NODE   VOLTAGE     NODE   VOLTAGE     NODE   VOLTAGE


( Vout)    3.3333  ($N_0001)    5.0000                   




    VOLTAGE SOURCE CURRENTS
    NAME         CURRENT

    V_V1        -3.333E-03

    TOTAL POWER DISSIPATION   1.67E-02  WATTS


**** 09/21/18 15:14:15 *********** Evaluation PSpice (Nov 1999) **************

 * C:\Users\Petter\Documents\voltagedivider_flexiforce.sch


 ****     OPERATING POINT INFORMATION      TEMPERATURE =   27.000 DEG C


******************************************************************************




**** 09/21/18 15:14:15 *********** Evaluation PSpice (Nov 1999) **************

 * C:\Users\Petter\Documents\voltagedivider_flexiforce.sch


 ****     INITIAL TRANSIENT SOLUTION       TEMPERATURE =   27.000 DEG C


******************************************************************************



 NODE   VOLTAGE     NODE   VOLTAGE     NODE   VOLTAGE     NODE   VOLTAGE


( Vout)    3.3333  ($N_0001)    5.0000                   




    VOLTAGE SOURCE CURRENTS
    NAME         CURRENT

    V_V1        -3.333E-03

    TOTAL POWER DISSIPATION   1.67E-02  WATTS



          JOB CONCLUDED

          TOTAL JOB TIME            3.83
